Circuit: * C:\Users\young\Downloads\simplified_PRT_measurement_circuitry.asc

WARNING: Less than two connections to node vout.  This node is used by v:u1:oso.
Singular matrix:  Check node u1:57
   Iteration No. 11
Direct Newton iteration failed to find .op point.  (Use ".option noopiter" to skip.)
Starting Gmin stepping
Gmin = 10
vernier = 0.5
vernier = 0.25
vernier = 0.125
Gmin = 2.62144
vernier = 0.0625
vernier = 0.03125
vernier = 0.015625
vernier = 0.0078125
vernier = 0.00390625
vernier = 0.00195312
vernier = 0.000976562
vernier = 0.000488281
Gmin = 0
Gmin stepping succeeded in finding the operating point.

Semiconductor Device Operating Points:
                        --- Diodes ---
Name:    d:u1:7      d:u1:8      d:u1:9      d:u1:10     d:u1:5
Model:    u1:d        u1:d        u1:d        u1:d        u1:d
Id:     -1.40e-12   -7.01e-13   -1.28e-12   -8.20e-13   -1.04e-12
Vd:     -1.40e+00   -7.00e-01   -1.28e+00   -8.19e-01   -1.04e+00
Req:     1.00e+12    1.00e+12    1.00e+12    1.00e+12    1.00e+12
CAP:     0.00e+00    0.00e+00    0.00e+00    0.00e+00    0.00e+00

Name:    d:u1:6      d:u1:3      d:u1:4      d:u1:40     d:u1:41
Model:    u1:d        u1:d        u1:d        u1:d        u1:d
Id:     -1.56e-12   -1.99e-12   -6.17e-13   -1.25e-22   -2.58e-22
Vd:     -1.56e+00   -1.98e+00   -6.16e-01   -9.02e-11   -1.86e-10
Req:     1.00e+12    1.00e+12    1.00e+12    7.21e+11    7.21e+11
CAP:     0.00e+00    0.00e+00    0.00e+00    0.00e+00    0.00e+00

Name:    d:u1:13     d:u1:14     d:u1:15     d:u1:16     d:u1:1
Model:    u1:d        u1:d        u1:d        u1:d        u1:d
Id:     -2.20e-12   -2.20e-12   -1.92e-12   -1.28e-12   -4.09e-13
Vd:     -2.20e+00   -2.20e+00   -1.92e+00   -1.28e+00   -4.08e-01
Req:     1.00e+12    1.00e+12    1.00e+12    1.00e+12    1.00e+12
CAP:     0.00e+00    0.00e+00    0.00e+00    0.00e+00    0.00e+00

Name:    d:u1:2      d:u1:11     d:u1:12     d:u1:20     d:u1:23
Model:    u1:d        u1:d        u1:d        u1:d        u1:d
Id:     -2.39e-12   -4.09e-13   -2.39e-12    2.48e-12    2.48e-12
Vd:     -2.39e+00   -4.08e-01   -2.39e+00    2.02e-02    2.02e-02
Req:     1.00e+12    1.00e+12    1.00e+12    1.05e+09    1.05e+09
CAP:     0.00e+00    0.00e+00    0.00e+00    0.00e+00    0.00e+00

Name:    d:u1:26     d:u1:27     d:u1:30     d:u1:31     d:u1:34
Model:    u1:d        u1:d        u1:d        u1:d        u1:d
Id:     -4.51e-11    1.63e-04   -4.51e-11    3.57e-05    1.26e-04
Vd:     -4.51e+01    6.68e-02   -4.51e+01    6.28e-02    6.61e-02
Req:     1.00e+12    1.59e+01    1.00e+12    7.25e+01    2.05e+01
CAP:     0.00e+00    0.00e+00    0.00e+00    0.00e+00    0.00e+00

Name:    d:u1:35     d:u1:21     d:u1:22     d:u1:17     d:u1:18
Model:    u1:d      u1:dslewp   u1:dslewn     u1:dn       u1:dn
Id:     -4.51e-11   -1.79e-18    1.79e-18    2.48e-12    2.48e-12
Vd:     -4.51e+01   -1.72e-06    1.72e-06    2.00e-01    2.00e-01
Req:     1.00e+12    9.63e+11    9.63e+11    1.12e+10    1.12e+10
CAP:     0.00e+00    0.00e+00    0.00e+00    0.00e+00    0.00e+00

Name:    d:u1:19     d:u1:38     d:u1:39     d:u1:24     d:u1:25
Model:    u1:dn      u1:din      u1:din       u1:dz       u1:dz
Id:      2.48e-12    2.48e-12    2.48e-12   -2.48e-12   -2.48e-12
Vd:      2.00e-01    2.00e-01    2.00e-01   -2.48e+00   -2.48e+00
Req:     1.12e+10    1.12e+10    1.12e+10    1.00e+12    1.00e+12
CAP:     0.00e+00    0.00e+00    0.00e+00    0.00e+00    0.00e+00

Name:    d:u1:28     d:u1:29     d:u1:32     d:u1:33     d:u1:36
Model:    u1:dz       u1:dz       u1:dz       u1:dz       u1:dz
Id:      4.51e-11   -1.63e-04    4.51e-11   -3.57e-05   -1.26e-04
Vd:      3.16e-01   -5.04e+01    3.02e-01   -5.03e+01   -5.04e+01
Req:     1.26e+08    1.59e+02    2.18e+08    7.25e+02    2.05e+02
CAP:     0.00e+00    0.00e+00    0.00e+00    0.00e+00    0.00e+00

Name:    d:u1:37
Model:    u1:dz
Id:      4.51e-11
Vd:      3.03e-01
Req:     2.10e+08
CAP:     0.00e+00

                        --- Bipolar Transistors ---
Name:     q:u1:1      q:u1:2
Model:    u1:npn      u1:npn
Ib:       2.00e-07    2.00e-07
Ic:       2.00e-05    2.00e-05
Vbe:      6.73e-01    6.73e-01
Vbc:     -2.24e+01   -2.25e+01
Vce:      2.31e+01    2.32e+01
BetaDC:   1.00e+02    1.00e+02
Gm:       7.73e-04    7.73e-04
Rpi:      1.29e+05    1.29e+05
Rx:       0.00e+00    0.00e+00
Ro:       0.00e+00    0.00e+00
Cbe:      0.00e+00    0.00e+00
Cbc:      0.00e+00    0.00e+00
Cjs:      0.00e+00    0.00e+00
BetaAC:   1.00e+02    1.00e+02
Cbx:      0.00e+00    0.00e+00
Ft:       0.00e+00    0.00e+00



Date: Fri Feb 28 10:26:34 2025
Total elapsed time: 6.161 seconds.

tnom = 27
temp = 27
method = trap
totiter = 44
traniter = 0
tranpoints = 0
accept = 0
rejected = 0
matrix size = 141
fillins = 54
solver = Normal
Avg thread counts: 8.0/0.0/8.0/8.0
Matrix Compiler1: 5.72 KB object code size
Matrix Compiler2:     886 opcodes
